
**** 11/25/18 11:37:50 *********** Evaluation PSpice (Nov 1999) **************

 * C:\Users\Bappy\Desktop\PSpiceSchematics\Schematic8.sch


 ****     CIRCUIT DESCRIPTION


******************************************************************************




* Schematics Version 9.1 - Web Update 1
* Sun Nov 25 11:37:50 2018



** Analysis setup **
.OP 


* From [PSPICE NETLIST] section of pspiceev.ini:
.lib "nom.lib"

.INC "Schematic8.net"

**** INCLUDING Schematic8.net ****
* Schematics Netlist *



R_R1         a b  1k  
V_V1         a 0 10V
R_R2         b $N_0001  1k  
R_R3         0 b  1k  
E_E2         $N_0001 0 a b 1

**** RESUMING Schematic8.cir ****
.INC "Schematic8.als"



**** INCLUDING Schematic8.als ****
* Schematics Aliases *

.ALIASES
R_R1            R1(1=a 2=b )
V_V1            V1(+=a -=0 )
R_R2            R2(1=b 2=$N_0001 )
R_R3            R3(1=0 2=b )
E_E2            E2(3=$N_0001 4=0 1=a 2=b )
_    _(a=a)
_    _(b=b)
.ENDALIASES


**** RESUMING Schematic8.cir ****
.probe


.END

**** 11/25/18 11:37:50 *********** Evaluation PSpice (Nov 1999) **************

 * C:\Users\Bappy\Desktop\PSpiceSchematics\Schematic8.sch


 ****     SMALL SIGNAL BIAS SOLUTION       TEMPERATURE =   27.000 DEG C


******************************************************************************



 NODE   VOLTAGE     NODE   VOLTAGE     NODE   VOLTAGE     NODE   VOLTAGE


(    a)   10.0000  (    b)    5.0000  ($N_0001)    5.0000                   




    VOLTAGE SOURCE CURRENTS
    NAME         CURRENT

    V_V1        -5.000E-03

    TOTAL POWER DISSIPATION   5.00E-02  WATTS


**** 11/25/18 11:37:50 *********** Evaluation PSpice (Nov 1999) **************

 * C:\Users\Bappy\Desktop\PSpiceSchematics\Schematic8.sch


 ****     OPERATING POINT INFORMATION      TEMPERATURE =   27.000 DEG C


******************************************************************************






**** VOLTAGE-CONTROLLED VOLTAGE SOURCES


NAME         E_E2      
V-SOURCE     5.000E+00
I-SOURCE    -8.674E-19

          JOB CONCLUDED

          TOTAL JOB TIME            0.00
