
**** 11/25/18 10:26:48 *********** Evaluation PSpice (Nov 1999) **************

 * C:\Users\Bappy\Desktop\PSpiceSchematics\Schematic1.sch


 ****     CIRCUIT DESCRIPTION


******************************************************************************




* Schematics Version 9.1 - Web Update 1
* Sun Nov 25 10:25:59 2018



** Analysis setup **
.OP 


* From [PSPICE NETLIST] section of pspiceev.ini:
.lib "nom.lib"

.INC "Schematic1.net"

**** INCLUDING Schematic1.net ****
* Schematics Netlist *



V_V2         $N_0001 0 10V
V_V3         $N_0002 $N_0003 5V
R_R4         $N_0001 $N_0002  100  
R_R5         0 $N_0002  5  
R_R6         0 $N_0003  5  
I_I1         $N_0003 0 DC 10a  

**** RESUMING Schematic1.cir ****
.INC "Schematic1.als"



**** INCLUDING Schematic1.als ****
* Schematics Aliases *

.ALIASES
V_V2            V2(+=$N_0001 -=0 )
V_V3            V3(+=$N_0002 -=$N_0003 )
R_R4            R4(1=$N_0001 2=$N_0002 )
R_R5            R5(1=0 2=$N_0002 )
R_R6            R6(1=0 2=$N_0003 )
I_I1            I1(+=$N_0003 -=0 )
.ENDALIASES


**** RESUMING Schematic1.cir ****
.probe


.END

**** 11/25/18 10:26:48 *********** Evaluation PSpice (Nov 1999) **************

 * C:\Users\Bappy\Desktop\PSpiceSchematics\Schematic1.sch


 ****     SMALL SIGNAL BIAS SOLUTION       TEMPERATURE =   27.000 DEG C


******************************************************************************



 NODE   VOLTAGE     NODE   VOLTAGE     NODE   VOLTAGE     NODE   VOLTAGE


($N_0001)   10.0000                   ($N_0002)  -21.7070                       

($N_0003)  -26.7070                   




    VOLTAGE SOURCE CURRENTS
    NAME         CURRENT

    V_V2        -3.171E-01
    V_V3         4.659E+00

    TOTAL POWER DISSIPATION  -2.01E+01  WATTS


**** 11/25/18 10:26:48 *********** Evaluation PSpice (Nov 1999) **************

 * C:\Users\Bappy\Desktop\PSpiceSchematics\Schematic1.sch


 ****     OPERATING POINT INFORMATION      TEMPERATURE =   27.000 DEG C


******************************************************************************





          JOB CONCLUDED

          TOTAL JOB TIME            0.00
