
**** 07/24/18 12:05:49 *********** Evaluation PSpice (Nov 1999) **************

 * C:\Users\Bappy\Desktop\Schematic\Schematic9.sch


 ****     CIRCUIT DESCRIPTION


******************************************************************************




* Schematics Version 9.1 - Web Update 1
* Tue Jul 24 12:05:49 2018



** Analysis setup **
.OP 


* From [PSPICE NETLIST] section of pspiceev.ini:
.lib "nom.lib"

.INC "Schematic9.net"

**** INCLUDING Schematic9.net ****
* Schematics Netlist *



R_R1         $N_0002 $N_0001  1k  
V_V1         $N_0002 0 10V
X_U1         $N_0001 $N_0003 Sw_tClose PARAMS: tClose=0 ttran=1p Rclosed=0.01
+  Ropen=1Meg
L_L1         0 $N_0003  1H IC=0 

**** RESUMING Schematic9.cir ****
.INC "Schematic9.als"



**** INCLUDING Schematic9.als ****
* Schematics Aliases *

.ALIASES
R_R1            R1(1=$N_0002 2=$N_0001 )
V_V1            V1(+=$N_0002 -=0 )
X_U1            U1(1=$N_0001 2=$N_0003 )
L_L1            L1(1=0 2=$N_0003 )
.ENDALIASES


**** RESUMING Schematic9.cir ****
.probe


.END

**** 07/24/18 12:05:49 *********** Evaluation PSpice (Nov 1999) **************

 * C:\Users\Bappy\Desktop\Schematic\Schematic9.sch


 ****     Voltage Controlled Switch MODEL PARAMETERS


******************************************************************************




               X_U1.Smod       
         RON     .01         
        ROFF    1.000000E+06 
         VON    1            
        VOFF    0            


**** 07/24/18 12:05:49 *********** Evaluation PSpice (Nov 1999) **************

 * C:\Users\Bappy\Desktop\Schematic\Schematic9.sch


 ****     SMALL SIGNAL BIAS SOLUTION       TEMPERATURE =   27.000 DEG C


******************************************************************************



 NODE   VOLTAGE     NODE   VOLTAGE     NODE   VOLTAGE     NODE   VOLTAGE


(X_U1.3)    0.0000 ($N_0001)   10.0000                   ($N_0002)   10.0000    

($N_0003)    9.9900                   




    VOLTAGE SOURCE CURRENTS
    NAME         CURRENT

    V_V1        -9.990E-09
    X_U1.V1      0.000E+00

    TOTAL POWER DISSIPATION   9.99E-08  WATTS


**** 07/24/18 12:05:49 *********** Evaluation PSpice (Nov 1999) **************

 * C:\Users\Bappy\Desktop\Schematic\Schematic9.sch


 ****     OPERATING POINT INFORMATION      TEMPERATURE =   27.000 DEG C


******************************************************************************






**** VOLTAGE CONTROLLED SWITCHES


NAME         X_U1.S1   
MODEL        X_U1.Smod 
I LOAD       9.99E-09 
V LOAD       9.99E-03 
R LOAD       1.00E+06 
V CTRL       0.00E+00 

          JOB CONCLUDED

          TOTAL JOB TIME             .02
